#Time       v(1)       v(2)      
 0.         3.3        3.3       
 100.E-12   3.3        3.3       
 200.E-12   3.3        3.3       
 300.E-12   3.3        3.3       
 400.E-12   3.3        3.3       
 500.E-12   3.3        3.3       
 600.E-12   3.3        3.3       
 700.E-12   3.3        3.3       
 800.E-12   3.3        3.3       
 900.E-12   3.3        3.3       
 1.E-9      3.3        3.3       
 1.1E-9     3.3        3.3       
 1.2E-9     3.3        3.3       
 1.3E-9     3.3        3.3       
 1.4E-9     3.3        3.3       
 1.5E-9     3.3        3.3       
 1.6E-9     3.3        3.3       
 1.7E-9     3.3        3.3       
 1.8E-9     3.3        3.3       
 1.9E-9     3.3        3.3       
 2.E-9      3.3        3.3       
 2.1E-9     3.3        3.3       
 2.2E-9     3.3        3.3       
 2.3E-9     3.3        3.3       
 2.4E-9     3.3        3.3       
 2.5E-9     3.3        3.3       
 2.6E-9     3.3        3.3       
 2.7E-9     3.3        3.3       
 2.8E-9     3.3        3.3       
 2.9E-9     3.3        3.3       
 3.E-9      3.3        3.3       
 3.1E-9     3.3        3.3       
 3.2E-9     3.3        3.3       
 3.3E-9     3.3        3.3       
 3.4E-9     3.3        3.3       
 3.5E-9     3.3        3.3       
 3.6E-9     3.3        3.3       
 3.7E-9     3.3        3.3       
 3.8E-9     3.3        3.3       
 3.9E-9     3.3        3.3       
 4.E-9      3.3        3.3       
 4.1E-9     3.3        3.3       
 4.2E-9     3.3        3.3       
 4.3E-9     3.3        3.3       
 4.4E-9     3.3        3.3       
 4.5E-9     3.3        3.3       
 4.6E-9     3.3        3.3       
 4.7E-9     3.3        3.3       
 4.8E-9     3.3        3.3       
 4.9E-9     3.3        3.3       
 5.E-9      3.3        3.3       
 5.1E-9     3.3        3.3       
 5.2E-9     3.3        3.3       
 5.3E-9     3.3        3.3       
 5.4E-9     3.3        3.3       
 5.5E-9     3.3        3.3       
 5.6E-9     3.3        3.3       
 5.7E-9     3.3        3.3       
 5.8E-9     3.3        3.3       
 5.9E-9     3.3        3.3       
 6.E-9      3.3        3.3       
 6.1E-9     3.3        3.3       
 6.2E-9     3.3        3.3       
 6.3E-9     3.3        3.3       
 6.4E-9     3.3        3.3       
 6.5E-9     3.3        3.3       
 6.6E-9     3.3        3.3       
 6.7E-9     3.3        3.3       
 6.8E-9     3.3        3.3       
 6.9E-9     3.3        3.3       
 7.E-9      3.3        3.3       
 7.1E-9     3.3        3.3       
 7.2E-9     3.3        3.3       
 7.3E-9     3.3        3.3       
 7.4E-9     3.3        3.3       
 7.5E-9     3.3        3.3       
 7.6E-9     3.3        3.3       
 7.7E-9     3.3        3.3       
 7.8E-9     3.3        3.3       
 7.9E-9     3.3        3.3       
 8.E-9      3.3        3.3       
 8.1E-9     3.3        3.3       
 8.2E-9     3.3        3.3       
 8.3E-9     3.3        3.3       
 8.4E-9     3.3        3.3       
 8.5E-9     3.3        3.3       
 8.6E-9     3.3        3.3       
 8.7E-9     3.3        3.3       
 8.8E-9     3.3        3.3       
 8.9E-9     3.3        3.3       
 9.E-9      3.3        3.3       
 9.1E-9     3.3        3.3       
 9.2E-9     3.3        3.3       
 9.3E-9     3.3        3.3       
 9.4E-9     3.3        3.3       
 9.5E-9     3.3        3.3       
 9.6E-9     3.3        3.3       
 9.7E-9     3.3        3.3       
 9.8E-9     3.3        3.3       
 9.9E-9     3.3        3.3       
 10.E-9     3.3        3.3       
 10.1E-9    3.3        3.3       
 10.2E-9    3.3        3.3       
 10.3E-9    3.3        3.3       
 10.4E-9    3.3        3.3       
 10.5E-9    3.3        3.3       
 10.6E-9    3.3        3.3       
 10.7E-9    3.3        3.3       
 10.8E-9    3.3        3.3       
 10.9E-9    3.3        3.3       
 11.E-9     3.3        3.3       
 11.1E-9    3.3        3.3       
 11.2E-9    3.3        3.3       
 11.3E-9    3.3        3.3       
 11.4E-9    3.3        3.3       
 11.5E-9    3.3        3.3       
 11.6E-9    3.3        3.3       
 11.7E-9    3.3        3.3       
 11.8E-9    3.3        3.3       
 11.9E-9    3.3        3.3       
 12.E-9     3.3        3.3       
 12.1E-9    3.3        3.3       
 12.2E-9    3.3        3.3       
 12.3E-9    3.3        3.3       
 12.4E-9    2.7265     3.2727    
 12.5E-9    1.7863     3.1759    
 12.6E-9    0.84615    2.9988    
 12.7E-9    275.35E-9  2.7535    
 12.8E-9    249.12E-9  2.4912    
 12.9E-9    225.4E-9   2.254     
 13.E-9     203.93E-9  2.0393    
 13.1E-9    184.51E-9  1.8451    
 13.2E-9    166.94E-9  1.6694    
 13.3E-9    151.04E-9  1.5104    
 13.4E-9    136.65E-9  1.3665    
 13.5E-9    123.64E-9  1.2364    
 13.6E-9    111.86E-9  1.1186    
 13.7E-9    101.21E-9  1.0121    
 13.8E-9    91.571E-9  0.91571   
 13.9E-9    82.85E-9   0.8285    
 14.E-9     74.96E-9   0.7496    
 14.1E-9    67.821E-9  0.67821   
 14.2E-9    61.362E-9  0.61362   
 14.3E-9    55.518E-9  0.55518   
 14.4E-9    50.23E-9   0.5023    
 14.5E-9    45.446E-9  0.45446   
 14.6E-9    41.118E-9  0.41118   
 14.7E-9    37.202E-9  0.37202   
 14.8E-9    33.659E-9  0.33659   
 14.9E-9    30.454E-9  0.30454   
 15.E-9     27.553E-9  0.27553   
 15.1E-9    24.929E-9  0.24929   
 15.2E-9    22.555E-9  0.22555   
 15.3E-9    20.407E-9  0.20407   
 15.4E-9    18.463E-9  0.18463   
 15.5E-9    16.705E-9  0.16705   
 15.6E-9    15.114E-9  0.15114   
 15.7E-9    13.675E-9  0.13675   
 15.8E-9    12.372E-9  0.12372   
 15.9E-9    11.194E-9  0.11194   
 16.E-9     10.128E-9  0.10128   
 16.1E-9    9.1632E-9  0.091632  
 16.2E-9    8.2906E-9  0.082906  
 16.3E-9    7.501E-9   0.07501   
 16.4E-9    6.7866E-9  0.067866  
 16.5E-9    6.1403E-9  0.061403  
 16.6E-9    5.5555E-9  0.055555  
 16.7E-9    5.0264E-9  0.050264  
 16.8E-9    4.5477E-9  0.045477  
 16.9E-9    4.1146E-9  0.041146  
 17.E-9     3.7227E-9  0.037227  
 17.1E-9    3.3682E-9  0.033682  
 17.2E-9    3.0474E-9  0.030474  
 17.3E-9    2.7572E-9  0.027572  
 17.4E-9    2.4946E-9  0.024946  
 17.5E-9    2.257E-9   0.02257   
 17.6E-9    2.042E-9   0.02042   
 17.7E-9    1.8476E-9  0.018476  
 17.8E-9    1.6716E-9  0.016716  
 17.9E-9    1.5124E-9  0.015124  
 18.E-9     1.3684E-9  0.013684  
 18.1E-9    1.238E-9   0.01238   
 18.2E-9    1.1201E-9  0.011201  
 18.3E-9    1.0135E-9  0.010135  
 18.4E-9    916.9E-12  0.0091693 
 18.5E-9    829.6E-12  0.0082961 
 18.6E-9    750.6E-12  0.007506  
 18.7E-9    679.1E-12  0.0067911 
 18.8E-9    614.4E-12  0.0061443 
 18.9E-9    555.9E-12  0.0055592 
 19.E-9     503.E-12   0.0050297 
 19.1E-9    455.1E-12  0.0045507 
 19.2E-9    411.7E-12  0.0041173 
 19.3E-9    372.5E-12  0.0037252 
 19.4E-9    337.E-12   0.0033704 
 19.5E-9    304.9E-12  0.0030494 
 19.6E-9    275.9E-12  0.002759  
 19.7E-9    249.6E-12  0.0024962 
 19.8E-9    225.8E-12  0.0022585 
 19.9E-9    204.3E-12  0.0020434 
 20.E-9     184.9E-12  0.0018488 
 20.1E-9    167.3E-12  0.0016727 
 20.2E-9    151.3E-12  0.0015134 
 20.3E-9    136.9E-12  0.0013693 
 20.4E-9    123.9E-12  0.0012389 
 20.5E-9    112.1E-12  0.0011209 
 20.6E-9    101.4E-12  0.0010141 
 20.7E-9    91.75E-12  917.55E-6 
 20.8E-9    83.02E-12  830.16E-6 
 20.9E-9    75.11E-12  751.1E-6  
 21.E-9     67.96E-12  679.56E-6 
 21.1E-9    61.48E-12  614.84E-6 
 21.2E-9    55.63E-12  556.29E-6 
 21.3E-9    50.33E-12  503.31E-6 
 21.4E-9    45.54E-12  455.37E-6 
 21.5E-9    41.2E-12   412.E-6   
 21.6E-9    37.28E-12  372.77E-6 
 21.7E-9    33.73E-12  337.26E-6 
 21.8E-9    30.51E-12  305.14E-6 
 21.9E-9    27.61E-12  276.08E-6 
 22.E-9     24.98E-12  249.79E-6 
 22.1E-9    22.6E-12   226.E-6   
 22.2E-9    20.45E-12  204.48E-6 
 22.3E-9    18.5E-12   185.E-6   
 22.4E-9    16.74E-12  167.38E-6 
 22.5E-9    15.14E-12  151.44E-6 
 22.6E-9    0.11135    0.0054394 
 22.7E-9    1.1236     0.063729  
 22.8E-9    2.1359     0.21287   
 22.9E-9    3.1482     0.44422   
 23.E-9     3.3        0.70897   
 23.1E-9    3.3        0.95574   
 23.2E-9    3.3        1.179     
 23.3E-9    3.3        1.381     
 23.4E-9    3.3        1.5638    
 23.5E-9    3.3        1.7291    
 23.6E-9    3.3        1.8787    
 23.7E-9    3.3        2.0141    
 23.8E-9    3.3        2.1366    
 23.9E-9    3.3        2.2474    
 24.E-9     3.3        2.3476    
 24.1E-9    3.3        2.4383    
 24.2E-9    3.3        2.5204    
 24.3E-9    3.3        2.5946    
 24.4E-9    3.3        2.6618    
 24.5E-9    3.3        2.7226    
 24.6E-9    3.3        2.7776    
 24.7E-9    3.3        2.8273    
 24.8E-9    3.3        2.8723    
 24.9E-9    3.3        2.9131    
 25.E-9     3.3        2.9499    
 25.1E-9    3.3        2.9833    
 25.2E-9    3.3        3.0134    
 25.3E-9    3.3        3.0407    
 25.4E-9    3.3        3.0654    
 25.5E-9    3.3        3.0878    
 25.6E-9    3.3        3.108     
 25.7E-9    3.3        3.1263    
 25.8E-9    3.3        3.1428    
 25.9E-9    3.3        3.1578    
 26.E-9     3.3        3.1713    
 26.1E-9    3.3        3.1836    
 26.2E-9    3.3        3.1947    
 26.3E-9    3.3        3.2047    
 26.4E-9    3.3        3.2138    
 26.5E-9    3.3        3.222     
 26.6E-9    3.3        3.2294    
 26.7E-9    3.3        3.2361    
 26.8E-9    3.3        3.2422    
 26.9E-9    3.3        3.2477    
 27.E-9     3.3        3.2527    
 27.1E-9    3.3        3.2572    
 27.2E-9    3.3        3.2613    
 27.3E-9    3.3        3.265     
 27.4E-9    3.3        3.2683    
 27.5E-9    3.3        3.2713    
 27.6E-9    3.3        3.2741    
 27.7E-9    3.3        3.2765    
 27.8E-9    3.3        3.2788    
 27.9E-9    3.3        3.2808    
 28.E-9     3.3        3.2826    
 28.1E-9    3.3        3.2843    
 28.2E-9    3.3        3.2858    
 28.3E-9    3.3        3.2871    
 28.4E-9    3.3        3.2884    
 28.5E-9    3.3        3.2895    
 28.6E-9    3.3        3.2905    
 28.7E-9    3.3        3.2914    
 28.8E-9    3.3        3.2922    
 28.9E-9    3.3        3.2929    
 29.E-9     3.3        3.2936    
 29.1E-9    3.3        3.2942    
 29.2E-9    3.3        3.2948    
 29.3E-9    3.3        3.2953    
 29.4E-9    3.3        3.2957    
 29.5E-9    3.3        3.2961    
 29.6E-9    3.3        3.2965    
 29.7E-9    3.3        3.2968    
 29.8E-9    3.3        3.2971    
 29.9E-9    3.3        3.2974    
 30.E-9     3.3        3.2977    
 30.1E-9    3.3        3.2979    
 30.2E-9    3.3        3.2981    
 30.3E-9    3.3        3.2983    
 30.4E-9    3.3        3.2984    
 30.5E-9    3.3        3.2986    
 30.6E-9    3.3        3.2987    
 30.7E-9    3.3        3.2988    
 30.8E-9    3.3        3.2989    
 30.9E-9    3.3        3.299     
 31.E-9     3.3        3.2991    
 31.1E-9    3.3        3.2992    
 31.2E-9    3.3        3.2993    
 31.3E-9    3.3        3.2994    
 31.4E-9    3.3        3.2994    
 31.5E-9    3.3        3.2995    
 31.6E-9    3.3        3.2995    
 31.7E-9    3.3        3.2996    
 31.8E-9    3.3        3.2996    
 31.9E-9    3.3        3.2996    
 32.E-9     3.3        3.2997    
 32.1E-9    3.3        3.2997    
 32.2E-9    3.3        3.2997    
 32.3E-9    3.3        3.2998    
 32.4E-9    2.7265     3.2725    
 32.5E-9    1.7863     3.1757    
 32.6E-9    0.84615    2.9986    
 32.7E-9    275.33E-9  2.7533    
 32.8E-9    249.11E-9  2.4911    
 32.9E-9    225.39E-9  2.2539    
 33.E-9     203.92E-9  2.0392    
 33.1E-9    184.5E-9   1.845     
 33.2E-9    166.93E-9  1.6693    
 33.3E-9    151.03E-9  1.5103    
 33.4E-9    136.65E-9  1.3665    
 33.5E-9    123.63E-9  1.2363    
 33.6E-9    111.86E-9  1.1186    
 33.7E-9    101.2E-9   1.012     
 33.8E-9    91.566E-9  0.91566   
 33.9E-9    82.846E-9  0.82846   
 34.E-9     74.956E-9  0.74956   
 34.1E-9    67.817E-9  0.67817   
 34.2E-9    61.358E-9  0.61358   
 34.3E-9    55.515E-9  0.55515   
 34.4E-9    50.227E-9  0.50227   
 34.5E-9    45.444E-9  0.45444   
 34.6E-9    41.116E-9  0.41116   
 34.7E-9    37.2E-9    0.372     
 34.8E-9    33.657E-9  0.33657   
 34.9E-9    30.452E-9  0.30452   
 35.E-9     27.552E-9  0.27552   
 35.1E-9    24.928E-9  0.24928   
 35.2E-9    22.554E-9  0.22554   
 35.3E-9    20.406E-9  0.20406   
 35.4E-9    18.462E-9  0.18462   
 35.5E-9    16.704E-9  0.16704   
 35.6E-9    15.113E-9  0.15113   
 35.7E-9    13.674E-9  0.13674   
 35.8E-9    12.371E-9  0.12371   
 35.9E-9    11.193E-9  0.11193   
 36.E-9     10.127E-9  0.10127   
 36.1E-9    9.1627E-9  0.091627  
 36.2E-9    8.2901E-9  0.082901  
 36.3E-9    7.5005E-9  0.075005  
 36.4E-9    6.7862E-9  0.067862  
 36.5E-9    6.1399E-9  0.061399  
 36.6E-9    5.5552E-9  0.055552  
 36.7E-9    5.0261E-9  0.050261  
 36.8E-9    4.5474E-9  0.045474  
 36.9E-9    4.1143E-9  0.041143  
 37.E-9     3.7225E-9  0.037225  
 37.1E-9    3.368E-9   0.03368   
 37.2E-9    3.0472E-9  0.030472  
 37.3E-9    2.757E-9   0.02757   
 37.4E-9    2.4944E-9  0.024944  
 37.5E-9    2.2569E-9  0.022569  
 37.6E-9    2.0419E-9  0.020419  
 37.7E-9    1.8475E-9  0.018475  
 37.8E-9    1.6715E-9  0.016715  
 37.9E-9    1.5123E-9  0.015123  
 38.E-9     1.3683E-9  0.013683  
 38.1E-9    1.238E-9   0.01238   
 38.2E-9    1.1201E-9  0.011201  
 38.3E-9    1.0134E-9  0.010134  
 38.4E-9    916.9E-12  0.0091688 
 38.5E-9    829.6E-12  0.0082956 
 38.6E-9    750.6E-12  0.0075055 
 38.7E-9    679.1E-12  0.0067907 
 38.8E-9    614.4E-12  0.006144  
 38.9E-9    555.9E-12  0.0055589 
 39.E-9     502.9E-12  0.0050294 
 39.1E-9    455.E-12   0.0045504 
 39.2E-9    411.7E-12  0.0041171 
 39.3E-9    372.5E-12  0.003725  
 39.4E-9    337.E-12   0.0033702 
 39.5E-9    304.9E-12  0.0030492 
 39.6E-9    275.9E-12  0.0027588 
 39.7E-9    249.6E-12  0.0024961 
 39.8E-9    225.8E-12  0.0022584 
 39.9E-9    204.3E-12  0.0020433 
 40.E-9     184.9E-12  0.0018487 
 40.1E-9    167.3E-12  0.0016726 
 40.2E-9    151.3E-12  0.0015133 
 40.3E-9    136.9E-12  0.0013692 
 40.4E-9    123.9E-12  0.0012388 
 40.5E-9    112.1E-12  0.0011208 
 40.6E-9    101.4E-12  0.0010141 
 40.7E-9    91.75E-12  917.49E-6 
 40.8E-9    83.01E-12  830.11E-6 
 40.9E-9    75.11E-12  751.05E-6 
 41.E-9     67.95E-12  679.53E-6 
 41.1E-9    61.48E-12  614.81E-6 
 41.2E-9    55.63E-12  556.26E-6 
 41.3E-9    50.33E-12  503.28E-6 
 41.4E-9    45.53E-12  455.35E-6 
 41.5E-9    41.2E-12   411.98E-6 
 41.6E-9    37.27E-12  372.74E-6 
 41.7E-9    33.72E-12  337.25E-6 
 41.8E-9    30.51E-12  305.13E-6 
 41.9E-9    27.61E-12  276.07E-6 
 42.E-9     24.98E-12  249.77E-6 
 42.1E-9    22.6E-12   225.99E-6 
 42.2E-9    20.45E-12  204.46E-6 
 42.3E-9    18.5E-12   184.99E-6 
 42.4E-9    16.74E-12  167.37E-6 
 42.5E-9    15.14E-12  151.43E-6 
 42.6E-9    0.11135    0.0054394 
 42.7E-9    1.1236     0.063729  
 42.8E-9    2.1359     0.21287   
 42.9E-9    3.1482     0.44422   
 43.E-9     3.3        0.70897   
 43.1E-9    3.3        0.95574   
 43.2E-9    3.3        1.179     
 43.3E-9    3.3        1.381     
 43.4E-9    3.3        1.5638    
 43.5E-9    3.3        1.7291    
 43.6E-9    3.3        1.8787    
 43.7E-9    3.3        2.0141    
 43.8E-9    3.3        2.1366    
 43.9E-9    3.3        2.2474    
 44.E-9     3.3        2.3476    
 44.1E-9    3.3        2.4383    
 44.2E-9    3.3        2.5204    
 44.3E-9    3.3        2.5946    
 44.4E-9    3.3        2.6618    
 44.5E-9    3.3        2.7226    
 44.6E-9    3.3        2.7776    
 44.7E-9    3.3        2.8273    
 44.8E-9    3.3        2.8723    
 44.9E-9    3.3        2.9131    
 45.E-9     3.3        2.9499    
 45.1E-9    3.3        2.9833    
 45.2E-9    3.3        3.0134    
 45.3E-9    3.3        3.0407    
 45.4E-9    3.3        3.0654    
 45.5E-9    3.3        3.0878    
 45.6E-9    3.3        3.108     
 45.7E-9    3.3        3.1263    
 45.8E-9    3.3        3.1428    
 45.9E-9    3.3        3.1578    
 46.E-9     3.3        3.1713    
 46.1E-9    3.3        3.1836    
 46.2E-9    3.3        3.1947    
 46.3E-9    3.3        3.2047    
 46.4E-9    3.3        3.2138    
 46.5E-9    3.3        3.222     
 46.6E-9    3.3        3.2294    
 46.7E-9    3.3        3.2361    
 46.8E-9    3.3        3.2422    
 46.9E-9    3.3        3.2477    
 47.E-9     3.3        3.2527    
 47.1E-9    3.3        3.2572    
 47.2E-9    3.3        3.2613    
 47.3E-9    3.3        3.265     
 47.4E-9    3.3        3.2683    
 47.5E-9    3.3        3.2713    
 47.6E-9    3.3        3.2741    
 47.7E-9    3.3        3.2765    
 47.8E-9    3.3        3.2788    
 47.9E-9    3.3        3.2808    
 48.E-9     3.3        3.2826    
 48.1E-9    3.3        3.2843    
 48.2E-9    3.3        3.2858    
 48.3E-9    3.3        3.2871    
 48.4E-9    3.3        3.2884    
 48.5E-9    3.3        3.2895    
 48.6E-9    3.3        3.2905    
 48.7E-9    3.3        3.2914    
 48.8E-9    3.3        3.2922    
 48.9E-9    3.3        3.2929    
 49.E-9     3.3        3.2936    
 49.1E-9    3.3        3.2942    
 49.2E-9    3.3        3.2948    
 49.3E-9    3.3        3.2953    
 49.4E-9    3.3        3.2957    
 49.5E-9    3.3        3.2961    
 49.6E-9    3.3        3.2965    
 49.7E-9    3.3        3.2968    
 49.8E-9    3.3        3.2971    
 49.9E-9    3.3        3.2974    
 50.E-9     3.3        3.2977    
